
T9374 000:126 SEGGER J-Link V6.48b Log File (0000ms, 0113ms total)
T9374 000:126 DLL Compiled: Aug  2 2019 10:18:25 (0000ms, 0113ms total)
T9374 000:126 Logging started @ 2021-03-17 15:21 (0000ms, 0113ms total)
T9374 000:126 JLINK_SetWarnOutHandler(...) (0000ms, 0113ms total)
T9374 000:126 JLINK_OpenEx(...)
Firmware: J-Link ARM-OB STM32 compiled Aug 22 2012 19:52:04
Hardware: V7.00
S/N: 20090928
Feature(s): RDI,FlashDL,FlashBP,JFlash,GDB
TELNET listener socket opened on port 19021WEBSRV 
Starting webserver (0057ms, 0170ms total)
T9374 000:126 WEBSRV Webserver running on local port 19080 (0057ms, 0170ms total)
T9374 000:126   returns O.K. (0057ms, 0170ms total)
T9374 000:183 JLINK_SetErrorOutHandler(...) (0000ms, 0170ms total)
T9374 000:183 JLINK_ExecCommand("ProjectFile = "F:\05产品配套资料\MiaowLabs两轮自平衡小车「小霸王Lite」光盘\02、程序源代码\Mwbalanced-stm32-小霸王Lite-firmware-互补滤波-none V3.35\JLinkSettings.ini"", ...). Ref file found at: C:\Keil_v5\ARM\Segger\JLinkDevices.ref (0002ms, 0172ms total)
T9374 000:183 XML referenced by ref file: C:\Program Files (x86)\SEGGER\JLink\JLinkDevices.xml (0002ms, 0172ms total)
T9374 000:183 C:\Program Files (x86)\SEGGER\JLink\JLinkDevices.xml evaluated successfully.  returns 0x00 (0213ms, 0383ms total)
T9374 000:400 JLINK_ExecCommand("Device = STM32F103C8", ...). Device "STM32F103C8" selected.  returns 0x00 (0005ms, 0388ms total)
T9374 000:405 JLINK_ExecCommand("DisableConnectionTimeout", ...).   returns 0x01 (0000ms, 0388ms total)
T9374 000:405 JLINK_GetHardwareVersion()  returns 0x11170 (0000ms, 0388ms total)
T9374 000:405 JLINK_GetDLLVersion()  returns 64802 (0000ms, 0388ms total)
T9374 000:405 JLINK_GetFirmwareString(...) (0000ms, 0388ms total)
T9374 000:416 JLINK_GetDLLVersion()  returns 64802 (0000ms, 0388ms total)
T9374 000:416 JLINK_GetCompileDateTime() (0000ms, 0388ms total)
T9374 000:419 JLINK_GetFirmwareString(...) (0000ms, 0388ms total)
T9374 000:421 JLINK_GetHardwareVersion()  returns 0x11170 (0000ms, 0388ms total)
T9374 000:427 JLINK_TIF_Select(JLINKARM_TIF_SWD)  returns 0x00 (0001ms, 0389ms total)
T9374 000:428 JLINK_SetSpeed(2000) (0001ms, 0390ms total)
T9374 000:429 JLINK_GetId() >0x10B TIF>Found SW-DP with ID 0x1BA01477 >0x0D TIF> >0x28 TIF> >0x0D TIF> >0x28 TIF> >0x0D TIF> >0x28 TIF> >0x0D TIF> >0x28 TIF> >0x0D TIF> >0x21 TIF> >0x0D TIF> >0x28 TIF> >0x0D TIF> >0x28 TIF> >0x0D TIF> >0x28 TIF> >0x0D TIF> >0x21 TIF> >0x0D TIF> >0x21 TIF> >0x0D TIF> >0x28 TIF> >0x0D TIF> >0x21 TIF> >0x0D TIF> >0x21 TIF> >0x0D TIF> >0x28 TIF> >0x0D TIF> >0x28 TIF> >0x0D TIF> >0x28 TIF> >0x0D TIF> >0x21 TIF> >0x0D TIF> >0x21 TIF> >0x0D TIF> >0x28 TIF> >0x0D TIF> >0x21 TIF>
 >0x0D TIF> >0x21 TIF> >0x0D TIF> >0x28 TIF> >0x0D TIF> >0x21 TIF> >0x0D TIF> >0x21 TIF> >0x0D TIF> >0x28 TIF> >0x0D TIF> >0x21 TIF> >0x0D TIF> >0x21 TIF> >0x0D TIF> >0x28 TIF> >0x0D TIF> >0x21 TIF> >0x0D TIF> >0x21 TIF> >0x10B TIF>Found SW-DP with ID 0x1BA01477 >0x0D TIF> >0x28 TIF> >0x0D TIF> >0x28 TIF> >0x0D TIF> >0x28 TIF> >0x0D TIF> >0x28 TIF> >0x0D TIF> >0x21 TIF> >0x0D TIF> >0x28 TIF>Scanning AP map to find all available APs >0x0D TIF> >0x28 TIF> >0x0D TIF> >0x21 TIF> >0x0D TIF> >0x21 TIF>
 >0x0D TIF> >0x28 TIF> >0x0D TIF> >0x21 TIF> >0x0D TIF> >0x21 TIF>AP[1]: Stopped AP scan as end of AP map has been reachedAP[0]: AHB-AP (IDR: 0x14770011)Iterating through AP map to find AHB-AP to use >0x42 TIF> >0x28 TIF> >0x0D TIF> >0x28 TIF> >0x0D TIF> >0x21 TIF> >0x0D TIF> >0x21 TIF> >0x42 TIF> >0x28 TIF> >0x0D TIF> >0x28 TIF> >0x0D TIF> >0x28 TIF> >0x0D TIF> >0x21 TIF> >0x0D TIF> >0x21 TIF>AP[0]: Core foundAP[0]: AHB-AP ROM base: 0xE00FF000 >0x0D TIF> >0x28 TIF> >0x0D TIF> >0x28 TIF> >0x0D TIF>
 >0x28 TIF> >0x0D TIF> >0x21 TIF> >0x0D TIF> >0x21 TIF>CPUID register: 0x411FC231. Implementer code: 0x41 (ARM)Found Cortex-M3 r1p1, Little endian. -- Max. mem block: 0x00002C18 -- CPU_ReadMem(4 bytes @ 0xE000EDF0) -- CPU_WriteMem(4 bytes @ 0xE000EDF0) -- CPU_ReadMem(4 bytes @ 0xE0002000)FPUnit: 6 code (BP) slots and 2 literal slots -- CPU_ReadMem(4 bytes @ 0xE000EDFC) -- CPU_WriteMem(4 bytes @ 0xE000EDFC) -- CPU_ReadMem(4 bytes @ 0xE0001000) -- CPU_WriteMem(4 bytes @ 0xE0001000)
 -- CPU_ReadMem(4 bytes @ 0xE000ED88) -- CPU_WriteMem(4 bytes @ 0xE000ED88) -- CPU_ReadMem(4 bytes @ 0xE000ED88) -- CPU_WriteMem(4 bytes @ 0xE000ED88)CoreSight components:ROMTbl[0] @ E00FF000 -- CPU_ReadMem(16 bytes @ 0xE00FF000) -- CPU_ReadMem(16 bytes @ 0xE000EFF0) -- CPU_ReadMem(16 bytes @ 0xE000EFE0)ROMTbl[0][0]: E000E000, CID: B105E00D, PID: 001BB000 SCS -- CPU_ReadMem(16 bytes @ 0xE0001FF0) -- CPU_ReadMem(16 bytes @ 0xE0001FE0)ROMTbl[0][1]: E0001000, CID: B105E00D, PID: 001BB002 DWT
 -- CPU_ReadMem(16 bytes @ 0xE0002FF0) -- CPU_ReadMem(16 bytes @ 0xE0002FE0)ROMTbl[0][2]: E0002000, CID: B105E00D, PID: 000BB003 FPB -- CPU_ReadMem(16 bytes @ 0xE0000FF0) -- CPU_ReadMem(16 bytes @ 0xE0000FE0)ROMTbl[0][3]: E0000000, CID: B105E00D, PID: 001BB001 ITM -- CPU_ReadMem(16 bytes @ 0xE00FF010) -- CPU_ReadMem(16 bytes @ 0xE0040FF0) -- CPU_ReadMem(16 bytes @ 0xE0040FE0)ROMTbl[0][4]: E0040000, CID: B105900D, PID: 001BB923 TPIU-Lite >0x0D TIF> >0x21 TIF>  returns 0x1BA01477 (0210ms, 0600ms total)
T9374 000:639 JLINK_GetDLLVersion()  returns 64802 (0000ms, 0600ms total)
T9374 000:639 JLINK_CORE_GetFound()  returns 0x30000FF (0000ms, 0600ms total)
T9374 000:639 JLINK_GetDebugInfo(0x100 = JLINKARM_ROM_TABLE_ADDR_INDEX) -- Value=0xE00FF000  returns 0x00 (0000ms, 0600ms total)
T9374 000:641 JLINK_GetDebugInfo(0x100 = JLINKARM_ROM_TABLE_ADDR_INDEX) -- Value=0xE00FF000  returns 0x00 (0000ms, 0600ms total)
T9374 000:641 JLINK_GetDebugInfo(0x101 = JLINKARM_DEBUG_INFO_ETM_ADDR_INDEX) -- Value=0x00000000  returns 0x00 (0000ms, 0600ms total)
T9374 000:641 JLINK_ReadMem (0xE0041FF0, 0x0010 Bytes, ...) -- CPU_ReadMem(16 bytes @ 0xE0041FF0) - Data: 00 00 00 00 00 00 00 00 00 00 00 00 00 00 00 00  returns 0x00 (0001ms, 0601ms total)
T9374 000:642 JLINK_GetDebugInfo(0x102 = JLINKARM_DEBUG_INFO_MTB_ADDR_INDEX) -- Value=0x00000000  returns 0x00 (0000ms, 0601ms total)
T9374 000:642 JLINK_GetDebugInfo(0x103 = JLINKARM_DEBUG_INFO_TPIU_ADDR_INDEX) -- Value=0xE0040000  returns 0x00 (0000ms, 0601ms total)
T9374 000:642 JLINK_GetDebugInfo(0x104 = JLINKARM_DEBUG_INFO_ITM_ADDR_INDEX) -- Value=0xE0000000  returns 0x00 (0000ms, 0601ms total)
T9374 000:642 JLINK_GetDebugInfo(0x105 = JLINKARM_DEBUG_INFO_DWT_ADDR_INDEX) -- Value=0xE0001000  returns 0x00 (0000ms, 0601ms total)
T9374 000:642 JLINK_GetDebugInfo(0x106 = JLINKARM_DEBUG_INFO_FPB_ADDR_INDEX) -- Value=0xE0002000  returns 0x00 (0000ms, 0601ms total)
T9374 000:642 JLINK_GetDebugInfo(0x107 = JLINKARM_DEBUG_INFO_NVIC_ADDR_INDEX) -- Value=0xE000E000  returns 0x00 (0000ms, 0601ms total)
T9374 000:642 JLINK_GetDebugInfo(0x10C = JLINKARM_DEBUG_INFO_DBG_ADDR_INDEX) -- Value=0xE000EDF0  returns 0x00 (0000ms, 0601ms total)
T9374 000:642 JLINK_ReadMemU32(0xE000ED00, 0x0001 Items, ...) -- CPU_ReadMem(4 bytes @ 0xE000ED00) - Data: 31 C2 1F 41  returns 1 (0001ms, 0602ms total)
T9374 000:643 JLINK_SetResetType(JLINKARM_CM3_RESET_TYPE_NORMAL)  returns JLINKARM_CM3_RESET_TYPE_NORMAL (0000ms, 0602ms total)
T9374 000:643 JLINK_Reset() -- CPU is running -- CPU_WriteMem(4 bytes @ 0xE000EDF0) -- CPU is running -- CPU_WriteMem(4 bytes @ 0xE000EDFC)Reset: Halt core after reset via DEMCR.VC_CORERESET. >0x35 TIF>Reset: Reset device via AIRCR.SYSRESETREQ. -- CPU is running -- CPU_WriteMem(4 bytes @ 0xE000ED0C) >0x0D TIF> >0x28 TIF> -- CPU_ReadMem(4 bytes @ 0xE000EDF0) -- CPU_ReadMem(4 bytes @ 0xE000EDF0) -- CPU is running -- CPU_WriteMem(4 bytes @ 0xE000EDF0) -- CPU is running -- CPU_WriteMem(4 bytes @ 0xE000EDFC)
 -- CPU_ReadMem(4 bytes @ 0xE000EDF0) -- CPU_WriteMem(4 bytes @ 0xE0002000) -- CPU_ReadMem(4 bytes @ 0xE000EDFC) -- CPU_ReadMem(4 bytes @ 0xE0001000) (0074ms, 0676ms total)
T9374 000:717 JLINK_Halt()  returns 0x00 (0000ms, 0676ms total)
T9374 000:717 JLINK_IsHalted()  returns TRUE (0000ms, 0676ms total)
T9374 000:717 JLINK_ReadMemU32(0xE000EDF0, 0x0001 Items, ...) -- CPU_ReadMem(4 bytes @ 0xE000EDF0) - Data: 03 00 03 00  returns 1 (0001ms, 0677ms total)
T9374 000:718 JLINK_WriteU32(0xE000EDF0, 0xA05F0003) -- CPU_WriteMem(4 bytes @ 0xE000EDF0)  returns 0 (0001ms, 0678ms total)
T9374 000:719 JLINK_WriteU32(0xE000EDFC, 0x01000000) -- CPU_WriteMem(4 bytes @ 0xE000EDFC)  returns 0 (0001ms, 0679ms total)
T9374 000:735 JLINK_GetHWStatus(...)  returns 0x00 (0001ms, 0680ms total)
T9374 000:744 JLINK_GetNumBPUnits(Type = 0xFFFFFF00)  returns 0x06 (0000ms, 0680ms total)
T9374 000:745 JLINK_GetNumBPUnits(Type = 0xF0)  returns 0x2000 (0000ms, 0680ms total)
T9374 000:745 JLINK_GetNumWPUnits()  returns 0x04 (0000ms, 0680ms total)
T9374 000:755 JLINK_GetSpeed()  returns 0x7D0 (0000ms, 0680ms total)
T9374 000:760 JLINK_ReadMemU32(0xE000E004, 0x0001 Items, ...) -- CPU_ReadMem(4 bytes @ 0xE000E004) - Data: 01 00 00 00  returns 1 (0001ms, 0681ms total)
T9374 000:761 JLINK_ReadMemU32(0xE000E004, 0x0001 Items, ...) -- CPU_ReadMem(4 bytes @ 0xE000E004) - Data: 01 00 00 00  returns 1 (0001ms, 0682ms total)
T9374 000:762 JLINK_WriteMem(0xE0001000, 0x001C Bytes, ...) - Data: 01 00 00 00 00 00 00 00 00 00 00 00 00 00 00 00 ... -- CPU_WriteMem(28 bytes @ 0xE0001000)  returns 0x1C (0001ms, 0683ms total)
T9374 000:763 JLINK_ReadMem (0xE0001000, 0x001C Bytes, ...) -- CPU_ReadMem(28 bytes @ 0xE0001000) - Data: 01 00 00 40 00 00 00 00 00 00 00 00 00 00 00 00 ...  returns 0x00 (0001ms, 0684ms total)
T9374 000:764 JLINK_Halt()  returns 0x00 (0000ms, 0684ms total)
T9374 000:764 JLINK_IsHalted()  returns TRUE (0000ms, 0684ms total)
T9374 000:766 JLINK_WriteMem(0x20000000, 0x0164 Bytes, ...) - Data: 00 BE 0A E0 0D 78 2D 06 68 40 08 24 40 00 00 D3 ... -- CPU_WriteMem(356 bytes @ 0x20000000)  returns 0x164 (0006ms, 0690ms total)
T9374 000:772 JLINK_WriteReg(R0, 0x08000000)  returns 0x00 (0000ms, 0690ms total)
T9374 000:772 JLINK_WriteReg(R1, 0x007A1200)  returns 0x00 (0000ms, 0690ms total)
T9374 000:772 JLINK_WriteReg(R2, 0x00000001)  returns 0x00 (0000ms, 0690ms total)
T9374 000:772 JLINK_WriteReg(R3, 0x00000000)  returns 0x00 (0000ms, 0690ms total)
T9374 000:772 JLINK_WriteReg(R4, 0x00000000)  returns 0x00 (0000ms, 0690ms total)
T9374 000:772 JLINK_WriteReg(R5, 0x00000000)  returns 0x00 (0000ms, 0690ms total)
T9374 000:772 JLINK_WriteReg(R6, 0x00000000)  returns 0x00 (0000ms, 0690ms total)
T9374 000:772 JLINK_WriteReg(R7, 0x00000000)  returns 0x00 (0000ms, 0690ms total)
T9374 000:772 JLINK_WriteReg(R8, 0x00000000)  returns 0x00 (0000ms, 0690ms total)
T9374 000:772 JLINK_WriteReg(R9, 0x20000160)  returns 0x00 (0000ms, 0690ms total)
T9374 000:772 JLINK_WriteReg(R10, 0x00000000)  returns 0x00 (0000ms, 0690ms total)
T9374 000:772 JLINK_WriteReg(R11, 0x00000000)  returns 0x00 (0000ms, 0690ms total)
T9374 000:772 JLINK_WriteReg(R12, 0x00000000)  returns 0x00 (0000ms, 0690ms total)
T9374 000:772 JLINK_WriteReg(R13 (SP), 0x20000800)  returns 0x00 (0000ms, 0690ms total)
T9374 000:772 JLINK_WriteReg(R14, 0x20000001)  returns 0x00 (0000ms, 0690ms total)
T9374 000:772 JLINK_WriteReg(R15 (PC), 0x20000038)  returns 0x00 (0000ms, 0690ms total)
T9374 000:772 JLINK_WriteReg(XPSR, 0x01000000)  returns 0x00 (0000ms, 0690ms total)
T9374 000:772 JLINK_WriteReg(MSP, 0x20000800)  returns 0x00 (0000ms, 0690ms total)
T9374 000:772 JLINK_WriteReg(PSP, 0x20000800)  returns 0x00 (0000ms, 0690ms total)
T9374 000:772 JLINK_WriteReg(CFBP, 0x00000000)  returns 0x00 (0000ms, 0690ms total)
T9374 000:772 JLINK_SetBPEx(Addr = 0x20000000, Type = 0xFFFFFFF2) -- CPU_ReadMem(2 bytes @ 0x20000000)  returns 0x00000001 (0001ms, 0691ms total)
T9374 000:773 JLINK_Go() -- CPU_WriteMem(2 bytes @ 0x20000000) -- CPU_ReadMem(4 bytes @ 0xE0001000) -- CPU_WriteMem(4 bytes @ 0xE0002008) -- CPU_WriteMem(4 bytes @ 0xE000200C) -- CPU_WriteMem(4 bytes @ 0xE0002010) -- CPU_WriteMem(4 bytes @ 0xE0002014) -- CPU_WriteMem(4 bytes @ 0xE0002018) -- CPU_WriteMem(4 bytes @ 0xE000201C) -- CPU_WriteMem(4 bytes @ 0xE0001004) (0008ms, 0699ms total)
T9374 000:782 JLINK_IsHalted() -- CPU_ReadMem(2 bytes @ 0x20000000)  returns TRUE (0004ms, 0704ms total)
T9374 000:786 JLINK_ReadReg(R15 (PC))  returns 0x20000000 (0000ms, 0700ms total)
T9374 000:786 JLINK_ClrBPEx(BPHandle = 0x00000001)  returns 0x00 (0000ms, 0700ms total)
T9374 000:786 JLINK_ReadReg(R0)  returns 0x00000000 (0000ms, 0700ms total)
T9374 000:786 JLINK_WriteReg(R0, 0x08000000)  returns 0x00 (0000ms, 0700ms total)
T9374 000:786 JLINK_WriteReg(R1, 0x007A1200)  returns 0x00 (0000ms, 0700ms total)
T9374 000:786 JLINK_WriteReg(R2, 0x00000001)  returns 0x00 (0000ms, 0700ms total)
T9374 000:786 JLINK_WriteReg(R3, 0x00000000)  returns 0x00 (0000ms, 0700ms total)
T9374 000:786 JLINK_WriteReg(R4, 0x00000000)  returns 0x00 (0000ms, 0700ms total)
T9374 000:786 JLINK_WriteReg(R5, 0x00000000)  returns 0x00 (0000ms, 0700ms total)
T9374 000:786 JLINK_WriteReg(R6, 0x00000000)  returns 0x00 (0000ms, 0700ms total)
T9374 000:786 JLINK_WriteReg(R7, 0x00000000)  returns 0x00 (0000ms, 0700ms total)
T9374 000:786 JLINK_WriteReg(R8, 0x00000000)  returns 0x00 (0000ms, 0700ms total)
T9374 000:786 JLINK_WriteReg(R9, 0x20000160)  returns 0x00 (0000ms, 0700ms total)
T9374 000:786 JLINK_WriteReg(R10, 0x00000000)  returns 0x00 (0000ms, 0700ms total)
T9374 000:786 JLINK_WriteReg(R11, 0x00000000)  returns 0x00 (0000ms, 0700ms total)
T9374 000:786 JLINK_WriteReg(R12, 0x00000000)  returns 0x00 (0000ms, 0700ms total)
T9374 000:786 JLINK_WriteReg(R13 (SP), 0x20000800)  returns 0x00 (0000ms, 0700ms total)
T9374 000:786 JLINK_WriteReg(R14, 0x20000001)  returns 0x00 (0000ms, 0700ms total)
T9374 000:786 JLINK_WriteReg(R15 (PC), 0x2000007C)  returns 0x00 (0000ms, 0700ms total)
T9374 000:786 JLINK_WriteReg(XPSR, 0x01000000)  returns 0x00 (0000ms, 0700ms total)
T9374 000:786 JLINK_WriteReg(MSP, 0x20000800)  returns 0x00 (0000ms, 0700ms total)
T9374 000:786 JLINK_WriteReg(PSP, 0x20000800)  returns 0x00 (0000ms, 0700ms total)
T9374 000:786 JLINK_WriteReg(CFBP, 0x00000000)  returns 0x00 (0000ms, 0700ms total)
T9374 000:786 JLINK_SetBPEx(Addr = 0x20000000, Type = 0xFFFFFFF2)  returns 0x00000002 (0000ms, 0700ms total)
T9374 000:786 JLINK_Go() -- CPU_ReadMem(4 bytes @ 0xE0001000) (0005ms, 0705ms total)
T9374 000:791 JLINK_IsHalted()  returns FALSE (0000ms, 0705ms total)
T9374 000:858 JLINK_IsHalted() -- CPU_ReadMem(2 bytes @ 0x20000000)  returns TRUE (0004ms, 0709ms total)
T9374 000:862 JLINK_ReadReg(R15 (PC))  returns 0x20000000 (0000ms, 0705ms total)
T9374 000:862 JLINK_ClrBPEx(BPHandle = 0x00000002)  returns 0x00 (0000ms, 0705ms total)
T9374 000:862 JLINK_ReadReg(R0)  returns 0x00000000 (0000ms, 0705ms total)
T9374 000:913 JLINK_WriteReg(R0, 0x00000001)  returns 0x00 (0000ms, 0705ms total)
T9374 000:913 JLINK_WriteReg(R1, 0x007A1200)  returns 0x00 (0000ms, 0705ms total)
T9374 000:913 JLINK_WriteReg(R2, 0x00000001)  returns 0x00 (0000ms, 0705ms total)
T9374 000:913 JLINK_WriteReg(R3, 0x00000000)  returns 0x00 (0000ms, 0705ms total)
T9374 000:913 JLINK_WriteReg(R4, 0x00000000)  returns 0x00 (0000ms, 0705ms total)
T9374 000:913 JLINK_WriteReg(R5, 0x00000000)  returns 0x00 (0000ms, 0705ms total)
T9374 000:913 JLINK_WriteReg(R6, 0x00000000)  returns 0x00 (0000ms, 0705ms total)
T9374 000:913 JLINK_WriteReg(R7, 0x00000000)  returns 0x00 (0000ms, 0705ms total)
T9374 000:913 JLINK_WriteReg(R8, 0x00000000)  returns 0x00 (0000ms, 0705ms total)
T9374 000:913 JLINK_WriteReg(R9, 0x20000160)  returns 0x00 (0000ms, 0705ms total)
T9374 000:913 JLINK_WriteReg(R10, 0x00000000)  returns 0x00 (0000ms, 0705ms total)
T9374 000:913 JLINK_WriteReg(R11, 0x00000000)  returns 0x00 (0000ms, 0705ms total)
T9374 000:913 JLINK_WriteReg(R12, 0x00000000)  returns 0x00 (0000ms, 0705ms total)
T9374 000:913 JLINK_WriteReg(R13 (SP), 0x20000800)  returns 0x00 (0000ms, 0705ms total)
T9374 000:913 JLINK_WriteReg(R14, 0x20000001)  returns 0x00 (0000ms, 0705ms total)
T9374 000:913 JLINK_WriteReg(R15 (PC), 0x2000006A)  returns 0x00 (0000ms, 0705ms total)
T9374 000:914 JLINK_WriteReg(XPSR, 0x01000000)  returns 0x00 (0000ms, 0705ms total)
T9374 000:914 JLINK_WriteReg(MSP, 0x20000800)  returns 0x00 (0000ms, 0705ms total)
T9374 000:914 JLINK_WriteReg(PSP, 0x20000800)  returns 0x00 (0000ms, 0705ms total)
T9374 000:914 JLINK_WriteReg(CFBP, 0x00000000)  returns 0x00 (0000ms, 0705ms total)
T9374 000:914 JLINK_SetBPEx(Addr = 0x20000000, Type = 0xFFFFFFF2)  returns 0x00000003 (0000ms, 0705ms total)
T9374 000:914 JLINK_Go() -- CPU_ReadMem(4 bytes @ 0xE0001000) (0004ms, 0709ms total)
T9374 000:918 JLINK_IsHalted() -- CPU_ReadMem(2 bytes @ 0x20000000)  returns TRUE (0005ms, 0714ms total)
T9374 000:923 JLINK_ReadReg(R15 (PC))  returns 0x20000000 (0000ms, 0709ms total)
T9374 000:923 JLINK_ClrBPEx(BPHandle = 0x00000003)  returns 0x00 (0000ms, 0709ms total)
T9374 000:923 JLINK_ReadReg(R0)  returns 0x00000000 (0000ms, 0709ms total)
T9374 000:931 JLINK_WriteMem(0x20000000, 0x0164 Bytes, ...) - Data: 00 BE 0A E0 0D 78 2D 06 68 40 08 24 40 00 00 D3 ... -- CPU_WriteMem(356 bytes @ 0x20000000)  returns 0x164 (0005ms, 0714ms total)
T9374 000:936 JLINK_WriteReg(R0, 0x08000000)  returns 0x00 (0000ms, 0714ms total)
T9374 000:936 JLINK_WriteReg(R1, 0x007A1200)  returns 0x00 (0000ms, 0714ms total)
T9374 000:936 JLINK_WriteReg(R2, 0x00000002)  returns 0x00 (0000ms, 0714ms total)
T9374 000:936 JLINK_WriteReg(R3, 0x00000000)  returns 0x00 (0000ms, 0714ms total)
T9374 000:936 JLINK_WriteReg(R4, 0x00000000)  returns 0x00 (0000ms, 0714ms total)
T9374 000:936 JLINK_WriteReg(R5, 0x00000000)  returns 0x00 (0000ms, 0714ms total)
T9374 000:936 JLINK_WriteReg(R6, 0x00000000)  returns 0x00 (0000ms, 0714ms total)
T9374 000:937 JLINK_WriteReg(R7, 0x00000000)  returns 0x00 (0000ms, 0715ms total)
T9374 000:937 JLINK_WriteReg(R8, 0x00000000)  returns 0x00 (0000ms, 0715ms total)
T9374 000:937 JLINK_WriteReg(R9, 0x20000160)  returns 0x00 (0000ms, 0715ms total)
T9374 000:937 JLINK_WriteReg(R10, 0x00000000)  returns 0x00 (0000ms, 0715ms total)
T9374 000:937 JLINK_WriteReg(R11, 0x00000000)  returns 0x00 (0000ms, 0715ms total)
T9374 000:937 JLINK_WriteReg(R12, 0x00000000)  returns 0x00 (0000ms, 0715ms total)
T9374 000:937 JLINK_WriteReg(R13 (SP), 0x20000800)  returns 0x00 (0000ms, 0715ms total)
T9374 000:937 JLINK_WriteReg(R14, 0x20000001)  returns 0x00 (0000ms, 0715ms total)
T9374 000:937 JLINK_WriteReg(R15 (PC), 0x20000038)  returns 0x00 (0000ms, 0715ms total)
T9374 000:937 JLINK_WriteReg(XPSR, 0x01000000)  returns 0x00 (0000ms, 0715ms total)
T9374 000:937 JLINK_WriteReg(MSP, 0x20000800)  returns 0x00 (0000ms, 0715ms total)
T9374 000:937 JLINK_WriteReg(PSP, 0x20000800)  returns 0x00 (0000ms, 0715ms total)
T9374 000:937 JLINK_WriteReg(CFBP, 0x00000000)  returns 0x00 (0000ms, 0715ms total)
T9374 000:937 JLINK_SetBPEx(Addr = 0x20000000, Type = 0xFFFFFFF2) -- CPU_ReadMem(2 bytes @ 0x20000000)  returns 0x00000004 (0001ms, 0716ms total)
T9374 000:938 JLINK_Go() -- CPU_WriteMem(2 bytes @ 0x20000000) -- CPU_ReadMem(4 bytes @ 0xE0001000) (0005ms, 0721ms total)
T9374 000:943 JLINK_IsHalted() -- CPU_ReadMem(2 bytes @ 0x20000000)  returns TRUE (0005ms, 0726ms total)
T9374 000:948 JLINK_ReadReg(R15 (PC))  returns 0x20000000 (0000ms, 0721ms total)
T9374 000:948 JLINK_ClrBPEx(BPHandle = 0x00000004)  returns 0x00 (0000ms, 0721ms total)
T9374 000:948 JLINK_ReadReg(R0)  returns 0x00000000 (0000ms, 0721ms total)
T9374 000:948 JLINK_WriteMem(0x20000164, 0x0400 Bytes, ...) - Data: D0 0C 00 20 ED 26 00 08 21 3D 00 08 23 3D 00 08 ... -- CPU_WriteMem(1024 bytes @ 0x20000164)  returns 0x400 (0013ms, 0734ms total)
T9374 000:961 JLINK_WriteReg(R0, 0x08000000)  returns 0x00 (0000ms, 0734ms total)
T9374 000:961 JLINK_WriteReg(R1, 0x00000400)  returns 0x00 (0000ms, 0734ms total)
T9374 000:961 JLINK_WriteReg(R2, 0x20000164)  returns 0x00 (0000ms, 0734ms total)
T9374 000:961 JLINK_WriteReg(R3, 0x00000000)  returns 0x00 (0000ms, 0734ms total)
T9374 000:961 JLINK_WriteReg(R4, 0x00000000)  returns 0x00 (0000ms, 0734ms total)
T9374 000:961 JLINK_WriteReg(R5, 0x00000000)  returns 0x00 (0000ms, 0734ms total)
T9374 000:961 JLINK_WriteReg(R6, 0x00000000)  returns 0x00 (0000ms, 0734ms total)
T9374 000:961 JLINK_WriteReg(R7, 0x00000000)  returns 0x00 (0000ms, 0734ms total)
T9374 000:961 JLINK_WriteReg(R8, 0x00000000)  returns 0x00 (0000ms, 0734ms total)
T9374 000:961 JLINK_WriteReg(R9, 0x20000160)  returns 0x00 (0000ms, 0734ms total)
T9374 000:961 JLINK_WriteReg(R10, 0x00000000)  returns 0x00 (0000ms, 0734ms total)
T9374 000:961 JLINK_WriteReg(R11, 0x00000000)  returns 0x00 (0000ms, 0734ms total)
T9374 000:961 JLINK_WriteReg(R12, 0x00000000)  returns 0x00 (0000ms, 0734ms total)
T9374 000:961 JLINK_WriteReg(R13 (SP), 0x20000800)  returns 0x00 (0000ms, 0734ms total)
T9374 000:961 JLINK_WriteReg(R14, 0x20000001)  returns 0x00 (0000ms, 0734ms total)
T9374 000:961 JLINK_WriteReg(R15 (PC), 0x200000F4)  returns 0x00 (0000ms, 0734ms total)
T9374 000:961 JLINK_WriteReg(XPSR, 0x01000000)  returns 0x00 (0000ms, 0734ms total)
T9374 000:961 JLINK_WriteReg(MSP, 0x20000800)  returns 0x00 (0000ms, 0734ms total)
T9374 000:961 JLINK_WriteReg(PSP, 0x20000800)  returns 0x00 (0001ms, 0735ms total)
T9374 000:962 JLINK_WriteReg(CFBP, 0x00000000)  returns 0x00 (0000ms, 0735ms total)
T9374 000:962 JLINK_SetBPEx(Addr = 0x20000000, Type = 0xFFFFFFF2)  returns 0x00000005 (0000ms, 0735ms total)
T9374 000:962 JLINK_Go() -- CPU_ReadMem(4 bytes @ 0xE0001000) (0004ms, 0739ms total)
T9374 000:966 JLINK_IsHalted()  returns FALSE (0001ms, 0740ms total)
T9374 001:003 JLINK_IsHalted() -- CPU_ReadMem(2 bytes @ 0x20000000)  returns TRUE (0004ms, 0743ms total)
T9374 001:007 JLINK_ReadReg(R15 (PC))  returns 0x20000000 (0000ms, 0739ms total)
T9374 001:007 JLINK_ClrBPEx(BPHandle = 0x00000005)  returns 0x00 (0000ms, 0739ms total)
T9374 001:007 JLINK_ReadReg(R0)  returns 0x00000000 (0000ms, 0739ms total)
T9374 001:008 JLINK_WriteMem(0x20000164, 0x0400 Bytes, ...) - Data: 01 61 00 E0 41 61 70 47 C1 60 70 47 4F F4 80 32 ... -- CPU_WriteMem(1024 bytes @ 0x20000164)  returns 0x400 (0012ms, 0751ms total)
T9374 001:020 JLINK_WriteReg(R0, 0x08000400)  returns 0x00 (0000ms, 0751ms total)
T9374 001:020 JLINK_WriteReg(R1, 0x00000400)  returns 0x00 (0000ms, 0751ms total)
T9374 001:020 JLINK_WriteReg(R2, 0x20000164)  returns 0x00 (0000ms, 0751ms total)
T9374 001:020 JLINK_WriteReg(R3, 0x00000000)  returns 0x00 (0000ms, 0751ms total)
T9374 001:020 JLINK_WriteReg(R4, 0x00000000)  returns 0x00 (0000ms, 0751ms total)
T9374 001:020 JLINK_WriteReg(R5, 0x00000000)  returns 0x00 (0000ms, 0751ms total)
T9374 001:020 JLINK_WriteReg(R6, 0x00000000)  returns 0x00 (0000ms, 0751ms total)
T9374 001:020 JLINK_WriteReg(R7, 0x00000000)  returns 0x00 (0000ms, 0751ms total)
T9374 001:020 JLINK_WriteReg(R8, 0x00000000)  returns 0x00 (0000ms, 0751ms total)
T9374 001:020 JLINK_WriteReg(R9, 0x20000160)  returns 0x00 (0000ms, 0751ms total)
T9374 001:020 JLINK_WriteReg(R10, 0x00000000)  returns 0x00 (0000ms, 0751ms total)
T9374 001:020 JLINK_WriteReg(R11, 0x00000000)  returns 0x00 (0000ms, 0751ms total)
T9374 001:020 JLINK_WriteReg(R12, 0x00000000)  returns 0x00 (0000ms, 0751ms total)
T9374 001:020 JLINK_WriteReg(R13 (SP), 0x20000800)  returns 0x00 (0000ms, 0751ms total)
T9374 001:020 JLINK_WriteReg(R14, 0x20000001)  returns 0x00 (0000ms, 0751ms total)
T9374 001:020 JLINK_WriteReg(R15 (PC), 0x200000F4)  returns 0x00 (0000ms, 0751ms total)
T9374 001:020 JLINK_WriteReg(XPSR, 0x01000000)  returns 0x00 (0000ms, 0751ms total)
T9374 001:020 JLINK_WriteReg(MSP, 0x20000800)  returns 0x00 (0000ms, 0751ms total)
T9374 001:020 JLINK_WriteReg(PSP, 0x20000800)  returns 0x00 (0000ms, 0751ms total)
T9374 001:020 JLINK_WriteReg(CFBP, 0x00000000)  returns 0x00 (0000ms, 0751ms total)
T9374 001:020 JLINK_SetBPEx(Addr = 0x20000000, Type = 0xFFFFFFF2)  returns 0x00000006 (0000ms, 0751ms total)
T9374 001:020 JLINK_Go() -- CPU_ReadMem(4 bytes @ 0xE0001000) (0005ms, 0756ms total)
T9374 001:025 JLINK_IsHalted()  returns FALSE (0001ms, 0757ms total)
T9374 001:031 JLINK_IsHalted()  returns FALSE (0001ms, 0757ms total)
T9374 001:033 JLINK_IsHalted()  returns FALSE (0000ms, 0756ms total)
T9374 001:034 JLINK_IsHalted()  returns FALSE (0000ms, 0756ms total)
T9374 001:035 JLINK_IsHalted()  returns FALSE (0000ms, 0756ms total)
T9374 001:036 JLINK_IsHalted()  returns FALSE (0000ms, 0756ms total)
T9374 001:037 JLINK_IsHalted()  returns FALSE (0000ms, 0756ms total)
T9374 001:038 JLINK_IsHalted()  returns FALSE (0000ms, 0756ms total)
T9374 001:039 JLINK_IsHalted()  returns FALSE (0000ms, 0756ms total)
T9374 001:040 JLINK_IsHalted()  returns FALSE (0000ms, 0756ms total)
T9374 001:041 JLINK_IsHalted()  returns FALSE (0002ms, 0758ms total)
T9374 001:044 JLINK_IsHalted()  returns FALSE (0000ms, 0756ms total)
T9374 001:045 JLINK_IsHalted()  returns FALSE (0000ms, 0756ms total)
T9374 001:046 JLINK_IsHalted()  returns FALSE (0000ms, 0756ms total)
T9374 001:047 JLINK_IsHalted()  returns FALSE (0000ms, 0756ms total)
T9374 001:048 JLINK_IsHalted()  returns FALSE (0000ms, 0756ms total)
T9374 001:049 JLINK_IsHalted()  returns FALSE (0000ms, 0756ms total)
T9374 001:050 JLINK_IsHalted()  returns FALSE (0000ms, 0756ms total)
T9374 001:051 JLINK_IsHalted()  returns FALSE (0000ms, 0756ms total)
T9374 001:052 JLINK_IsHalted()  returns FALSE (0000ms, 0756ms total)
T9374 001:053 JLINK_IsHalted()  returns FALSE (0000ms, 0756ms total)
T9374 001:054 JLINK_IsHalted()  returns FALSE (0000ms, 0756ms total)
T9374 001:055 JLINK_IsHalted()  returns FALSE (0000ms, 0756ms total)
T9374 001:056 JLINK_IsHalted() -- CPU_ReadMem(2 bytes @ 0x20000000)  returns TRUE (0003ms, 0759ms total)
T9374 001:060 JLINK_ReadReg(R15 (PC))  returns 0x20000000 (0000ms, 0756ms total)
T9374 001:060 JLINK_ClrBPEx(BPHandle = 0x00000006)  returns 0x00 (0000ms, 0756ms total)
T9374 001:060 JLINK_ReadReg(R0)  returns 0x00000000 (0000ms, 0756ms total)
T9374 001:060 JLINK_WriteMem(0x20000164, 0x0400 Bytes, ...) - Data: 02 43 2D 4B 5A 61 04 E0 2B 4A 52 69 82 43 2A 4B ... -- CPU_WriteMem(1024 bytes @ 0x20000164)  returns 0x400 (0013ms, 0769ms total)
T9374 001:073 JLINK_WriteReg(R0, 0x08000800)  returns 0x00 (0000ms, 0769ms total)
T9374 001:073 JLINK_WriteReg(R1, 0x00000400)  returns 0x00 (0000ms, 0769ms total)
T9374 001:073 JLINK_WriteReg(R2, 0x20000164)  returns 0x00 (0000ms, 0769ms total)
T9374 001:073 JLINK_WriteReg(R3, 0x00000000)  returns 0x00 (0000ms, 0769ms total)
T9374 001:073 JLINK_WriteReg(R4, 0x00000000)  returns 0x00 (0000ms, 0769ms total)
T9374 001:073 JLINK_WriteReg(R5, 0x00000000)  returns 0x00 (0000ms, 0769ms total)
T9374 001:073 JLINK_WriteReg(R6, 0x00000000)  returns 0x00 (0000ms, 0769ms total)
T9374 001:073 JLINK_WriteReg(R7, 0x00000000)  returns 0x00 (0000ms, 0769ms total)
T9374 001:073 JLINK_WriteReg(R8, 0x00000000)  returns 0x00 (0000ms, 0769ms total)
T9374 001:073 JLINK_WriteReg(R9, 0x20000160)  returns 0x00 (0000ms, 0769ms total)
T9374 001:073 JLINK_WriteReg(R10, 0x00000000)  returns 0x00 (0000ms, 0769ms total)
T9374 001:073 JLINK_WriteReg(R11, 0x00000000)  returns 0x00 (0000ms, 0769ms total)
T9374 001:073 JLINK_WriteReg(R12, 0x00000000)  returns 0x00 (0000ms, 0769ms total)
T9374 001:073 JLINK_WriteReg(R13 (SP), 0x20000800)  returns 0x00 (0000ms, 0769ms total)
T9374 001:073 JLINK_WriteReg(R14, 0x20000001)  returns 0x00 (0000ms, 0769ms total)
T9374 001:073 JLINK_WriteReg(R15 (PC), 0x200000F4)  returns 0x00 (0000ms, 0769ms total)
T9374 001:073 JLINK_WriteReg(XPSR, 0x01000000)  returns 0x00 (0000ms, 0769ms total)
T9374 001:073 JLINK_WriteReg(MSP, 0x20000800)  returns 0x00 (0000ms, 0769ms total)
T9374 001:073 JLINK_WriteReg(PSP, 0x20000800)  returns 0x00 (0000ms, 0769ms total)
T9374 001:073 JLINK_WriteReg(CFBP, 0x00000000)  returns 0x00 (0000ms, 0769ms total)
T9374 001:073 JLINK_SetBPEx(Addr = 0x20000000, Type = 0xFFFFFFF2)  returns 0x00000007 (0000ms, 0769ms total)
T9374 001:073 JLINK_Go() -- CPU_ReadMem(4 bytes @ 0xE0001000) (0004ms, 0773ms total)
T9374 001:077 JLINK_IsHalted()  returns FALSE (0001ms, 0774ms total)
T9374 001:083 JLINK_IsHalted()  returns FALSE (0000ms, 0773ms total)
T9374 001:084 JLINK_IsHalted()  returns FALSE (0000ms, 0773ms total)
T9374 001:085 JLINK_IsHalted()  returns FALSE (0000ms, 0773ms total)
T9374 001:086 JLINK_IsHalted()  returns FALSE (0000ms, 0773ms total)
T9374 001:087 JLINK_IsHalted()  returns FALSE (0000ms, 0773ms total)
T9374 001:088 JLINK_IsHalted()  returns FALSE (0000ms, 0773ms total)
T9374 001:089 JLINK_IsHalted()  returns FALSE (0000ms, 0773ms total)
T9374 001:090 JLINK_IsHalted()  returns FALSE (0000ms, 0773ms total)
T9374 001:091 JLINK_IsHalted()  returns FALSE (0000ms, 0773ms total)
T9374 001:092 JLINK_IsHalted()  returns FALSE (0000ms, 0773ms total)
T9374 001:093 JLINK_IsHalted()  returns FALSE (0000ms, 0773ms total)
T9374 001:094 JLINK_IsHalted()  returns FALSE (0000ms, 0773ms total)
T9374 001:098 JLINK_IsHalted()  returns FALSE (0000ms, 0773ms total)
T9374 001:099 JLINK_IsHalted()  returns FALSE (0000ms, 0773ms total)
T9374 001:100 JLINK_IsHalted()  returns FALSE (0000ms, 0773ms total)
T9374 001:101 JLINK_IsHalted()  returns FALSE (0000ms, 0773ms total)
T9374 001:102 JLINK_IsHalted()  returns FALSE (0000ms, 0773ms total)
T9374 001:103 JLINK_IsHalted()  returns FALSE (0000ms, 0773ms total)
T9374 001:104 JLINK_IsHalted()  returns FALSE (0000ms, 0773ms total)
T9374 001:105 JLINK_IsHalted()  returns FALSE (0001ms, 0774ms total)
T9374 001:109 JLINK_IsHalted() -- CPU_ReadMem(2 bytes @ 0x20000000)  returns TRUE (0004ms, 0777ms total)
T9374 001:113 JLINK_ReadReg(R15 (PC))  returns 0x20000000 (0000ms, 0773ms total)
T9374 001:113 JLINK_ClrBPEx(BPHandle = 0x00000007)  returns 0x00 (0000ms, 0773ms total)
T9374 001:113 JLINK_ReadReg(R0)  returns 0x00000000 (0000ms, 0773ms total)
T9374 001:114 JLINK_WriteMem(0x20000164, 0x0400 Bytes, ...) - Data: 8D 89 06 EA 85 05 2B 43 CD 89 06 EA 85 05 2B 43 ... -- CPU_WriteMem(1024 bytes @ 0x20000164)  returns 0x400 (0012ms, 0785ms total)
T9374 001:126 JLINK_WriteReg(R0, 0x08000C00)  returns 0x00 (0000ms, 0785ms total)
T9374 001:126 JLINK_WriteReg(R1, 0x00000400)  returns 0x00 (0000ms, 0785ms total)
T9374 001:126 JLINK_WriteReg(R2, 0x20000164)  returns 0x00 (0000ms, 0785ms total)
T9374 001:126 JLINK_WriteReg(R3, 0x00000000)  returns 0x00 (0000ms, 0785ms total)
T9374 001:126 JLINK_WriteReg(R4, 0x00000000)  returns 0x00 (0000ms, 0785ms total)
T9374 001:126 JLINK_WriteReg(R5, 0x00000000)  returns 0x00 (0000ms, 0785ms total)
T9374 001:126 JLINK_WriteReg(R6, 0x00000000)  returns 0x00 (0000ms, 0785ms total)
T9374 001:126 JLINK_WriteReg(R7, 0x00000000)  returns 0x00 (0000ms, 0785ms total)
T9374 001:126 JLINK_WriteReg(R8, 0x00000000)  returns 0x00 (0000ms, 0785ms total)
T9374 001:126 JLINK_WriteReg(R9, 0x20000160)  returns 0x00 (0000ms, 0785ms total)
T9374 001:126 JLINK_WriteReg(R10, 0x00000000)  returns 0x00 (0000ms, 0785ms total)
T9374 001:126 JLINK_WriteReg(R11, 0x00000000)  returns 0x00 (0000ms, 0785ms total)
T9374 001:126 JLINK_WriteReg(R12, 0x00000000)  returns 0x00 (0000ms, 0785ms total)
T9374 001:126 JLINK_WriteReg(R13 (SP), 0x20000800)  returns 0x00 (0000ms, 0785ms total)
T9374 001:126 JLINK_WriteReg(R14, 0x20000001)  returns 0x00 (0000ms, 0785ms total)
T9374 001:126 JLINK_WriteReg(R15 (PC), 0x200000F4)  returns 0x00 (0000ms, 0785ms total)
T9374 001:126 JLINK_WriteReg(XPSR, 0x01000000)  returns 0x00 (0000ms, 0785ms total)
T9374 001:126 JLINK_WriteReg(MSP, 0x20000800)  returns 0x00 (0000ms, 0785ms total)
T9374 001:126 JLINK_WriteReg(PSP, 0x20000800)  returns 0x00 (0000ms, 0785ms total)
T9374 001:126 JLINK_WriteReg(CFBP, 0x00000000)  returns 0x00 (0000ms, 0785ms total)
T9374 001:126 JLINK_SetBPEx(Addr = 0x20000000, Type = 0xFFFFFFF2)  returns 0x00000008 (0000ms, 0785ms total)
T9374 001:126 JLINK_Go() -- CPU_ReadMem(4 bytes @ 0xE0001000) (0005ms, 0790ms total)
T9374 001:131 JLINK_IsHalted()  returns FALSE (0001ms, 0791ms total)
T9374 001:135 JLINK_IsHalted()  returns FALSE (0000ms, 0790ms total)
T9374 001:138 JLINK_IsHalted()  returns FALSE (0000ms, 0790ms total)
T9374 001:139 JLINK_IsHalted()  returns FALSE (0000ms, 0790ms total)
T9374 001:140 JLINK_IsHalted()  returns FALSE (0000ms, 0790ms total)
T9374 001:141 JLINK_IsHalted()  returns FALSE (0000ms, 0790ms total)
T9374 001:142 JLINK_IsHalted()  returns FALSE (0000ms, 0790ms total)
T9374 001:143 JLINK_IsHalted()  returns FALSE (0000ms, 0790ms total)
T9374 001:144 JLINK_IsHalted()  returns FALSE (0000ms, 0790ms total)
T9374 001:145 JLINK_IsHalted()  returns FALSE (0000ms, 0790ms total)
T9374 001:146 JLINK_IsHalted()  returns FALSE (0000ms, 0790ms total)
T9374 001:147 JLINK_IsHalted()  returns FALSE (0000ms, 0790ms total)
T9374 001:148 JLINK_IsHalted()  returns FALSE (0000ms, 0790ms total)
T9374 001:149 JLINK_IsHalted()  returns FALSE (0000ms, 0790ms total)
T9374 001:150 JLINK_IsHalted()  returns FALSE (0000ms, 0790ms total)
T9374 001:151 JLINK_IsHalted()  returns FALSE (0000ms, 0790ms total)
T9374 001:152 JLINK_IsHalted()  returns FALSE (0000ms, 0790ms total)
T9374 001:153 JLINK_IsHalted()  returns FALSE (0000ms, 0790ms total)
T9374 001:154 JLINK_IsHalted()  returns FALSE (0000ms, 0790ms total)
T9374 001:155 JLINK_IsHalted()  returns FALSE (0000ms, 0790ms total)
T9374 001:156 JLINK_IsHalted()  returns FALSE (0000ms, 0790ms total)
T9374 001:157 JLINK_IsHalted()  returns FALSE (0000ms, 0790ms total)
T9374 001:158 JLINK_IsHalted()  returns FALSE (0000ms, 0790ms total)
T9374 001:159 JLINK_IsHalted()  returns FALSE (0000ms, 0790ms total)
T9374 001:160 JLINK_IsHalted()  returns FALSE (0000ms, 0790ms total)
T9374 001:161 JLINK_IsHalted()  returns FALSE (0000ms, 0790ms total)
T9374 001:162 JLINK_IsHalted() -- CPU_ReadMem(2 bytes @ 0x20000000)  returns TRUE (0004ms, 0794ms total)
T9374 001:166 JLINK_ReadReg(R15 (PC))  returns 0x20000000 (0000ms, 0790ms total)
T9374 001:166 JLINK_ClrBPEx(BPHandle = 0x00000008)  returns 0x00 (0000ms, 0790ms total)
T9374 001:166 JLINK_ReadReg(R0)  returns 0x00000000 (0000ms, 0790ms total)
T9374 001:167 JLINK_WriteMem(0x20000164, 0x0400 Bytes, ...) - Data: FF F7 53 FF E1 88 28 46 FF F7 42 FF 17 E0 20 88 ... -- CPU_WriteMem(1024 bytes @ 0x20000164)  returns 0x400 (0012ms, 0802ms total)
T9374 001:179 JLINK_WriteReg(R0, 0x08001000)  returns 0x00 (0000ms, 0802ms total)
T9374 001:179 JLINK_WriteReg(R1, 0x00000400)  returns 0x00 (0000ms, 0802ms total)
T9374 001:179 JLINK_WriteReg(R2, 0x20000164)  returns 0x00 (0000ms, 0802ms total)
T9374 001:179 JLINK_WriteReg(R3, 0x00000000)  returns 0x00 (0000ms, 0802ms total)
T9374 001:179 JLINK_WriteReg(R4, 0x00000000)  returns 0x00 (0000ms, 0802ms total)
T9374 001:179 JLINK_WriteReg(R5, 0x00000000)  returns 0x00 (0000ms, 0802ms total)
T9374 001:179 JLINK_WriteReg(R6, 0x00000000)  returns 0x00 (0000ms, 0802ms total)
T9374 001:179 JLINK_WriteReg(R7, 0x00000000)  returns 0x00 (0000ms, 0802ms total)
T9374 001:179 JLINK_WriteReg(R8, 0x00000000)  returns 0x00 (0000ms, 0802ms total)
T9374 001:179 JLINK_WriteReg(R9, 0x20000160)  returns 0x00 (0000ms, 0802ms total)
T9374 001:179 JLINK_WriteReg(R10, 0x00000000)  returns 0x00 (0000ms, 0802ms total)
T9374 001:179 JLINK_WriteReg(R11, 0x00000000)  returns 0x00 (0000ms, 0802ms total)
T9374 001:179 JLINK_WriteReg(R12, 0x00000000)  returns 0x00 (0000ms, 0802ms total)
T9374 001:179 JLINK_WriteReg(R13 (SP), 0x20000800)  returns 0x00 (0000ms, 0802ms total)
T9374 001:179 JLINK_WriteReg(R14, 0x20000001)  returns 0x00 (0000ms, 0802ms total)
T9374 001:179 JLINK_WriteReg(R15 (PC), 0x200000F4)  returns 0x00 (0000ms, 0802ms total)
T9374 001:179 JLINK_WriteReg(XPSR, 0x01000000)  returns 0x00 (0000ms, 0802ms total)
T9374 001:179 JLINK_WriteReg(MSP, 0x20000800)  returns 0x00 (0000ms, 0802ms total)
T9374 001:179 JLINK_WriteReg(PSP, 0x20000800)  returns 0x00 (0000ms, 0802ms total)
T9374 001:179 JLINK_WriteReg(CFBP, 0x00000000)  returns 0x00 (0000ms, 0802ms total)
T9374 001:179 JLINK_SetBPEx(Addr = 0x20000000, Type = 0xFFFFFFF2)  returns 0x00000009 (0000ms, 0802ms total)
T9374 001:179 JLINK_Go() -- CPU_ReadMem(4 bytes @ 0xE0001000) (0004ms, 0806ms total)
T9374 001:184 JLINK_IsHalted()  returns FALSE (0000ms, 0806ms total)
T9374 001:188 JLINK_IsHalted()  returns FALSE (0000ms, 0806ms total)
T9374 001:189 JLINK_IsHalted()  returns FALSE (0000ms, 0806ms total)
T9374 001:190 JLINK_IsHalted()  returns FALSE (0000ms, 0806ms total)
T9374 001:191 JLINK_IsHalted()  returns FALSE (0000ms, 0806ms total)
T9374 001:192 JLINK_IsHalted()  returns FALSE (0000ms, 0806ms total)
T9374 001:193 JLINK_IsHalted()  returns FALSE (0000ms, 0806ms total)
T9374 001:194 JLINK_IsHalted()  returns FALSE (0000ms, 0806ms total)
T9374 001:195 JLINK_IsHalted()  returns FALSE (0000ms, 0806ms total)
T9374 001:196 JLINK_IsHalted()  returns FALSE (0000ms, 0806ms total)
T9374 001:197 JLINK_IsHalted()  returns FALSE (0000ms, 0806ms total)
T9374 001:198 JLINK_IsHalted()  returns FALSE (0000ms, 0806ms total)
T9374 001:199 JLINK_IsHalted()  returns FALSE (0000ms, 0806ms total)
T9374 001:200 JLINK_IsHalted()  returns FALSE (0000ms, 0806ms total)
T9374 001:201 JLINK_IsHalted()  returns FALSE (0000ms, 0806ms total)
T9374 001:202 JLINK_IsHalted()  returns FALSE (0000ms, 0806ms total)
T9374 001:203 JLINK_IsHalted()  returns FALSE (0000ms, 0806ms total)
T9374 001:204 JLINK_IsHalted()  returns FALSE (0000ms, 0806ms total)
T9374 001:205 JLINK_IsHalted()  returns FALSE (0000ms, 0806ms total)
T9374 001:206 JLINK_IsHalted()  returns FALSE (0000ms, 0806ms total)
T9374 001:207 JLINK_IsHalted()  returns FALSE (0000ms, 0806ms total)
T9374 001:208 JLINK_IsHalted()  returns FALSE (0000ms, 0806ms total)
T9374 001:209 JLINK_IsHalted()  returns FALSE (0000ms, 0806ms total)
T9374 001:210 JLINK_IsHalted()  returns FALSE (0000ms, 0806ms total)
T9374 001:211 JLINK_IsHalted()  returns FALSE (0000ms, 0806ms total)
T9374 001:212 JLINK_IsHalted()  returns FALSE (0000ms, 0806ms total)
T9374 001:213 JLINK_IsHalted()  returns FALSE (0000ms, 0806ms total)
T9374 001:217 JLINK_IsHalted() -- CPU_ReadMem(2 bytes @ 0x20000000)  returns TRUE (0004ms, 0810ms total)
T9374 001:221 JLINK_ReadReg(R15 (PC))  returns 0x20000000 (0000ms, 0806ms total)
T9374 001:221 JLINK_ClrBPEx(BPHandle = 0x00000009)  returns 0x00 (0000ms, 0806ms total)
T9374 001:221 JLINK_ReadReg(R0)  returns 0x00000000 (0000ms, 0806ms total)
T9374 001:222 JLINK_WriteMem(0x20000164, 0x0400 Bytes, ...) - Data: 11 43 01 83 70 47 0A 46 00 21 01 8B 4F F6 FF 33 ... -- CPU_WriteMem(1024 bytes @ 0x20000164)  returns 0x400 (0012ms, 0818ms total)
T9374 001:234 JLINK_WriteReg(R0, 0x08001400)  returns 0x00 (0000ms, 0818ms total)
T9374 001:234 JLINK_WriteReg(R1, 0x00000400)  returns 0x00 (0000ms, 0818ms total)
T9374 001:234 JLINK_WriteReg(R2, 0x20000164)  returns 0x00 (0000ms, 0818ms total)
T9374 001:234 JLINK_WriteReg(R3, 0x00000000)  returns 0x00 (0000ms, 0818ms total)
T9374 001:234 JLINK_WriteReg(R4, 0x00000000)  returns 0x00 (0000ms, 0818ms total)
T9374 001:234 JLINK_WriteReg(R5, 0x00000000)  returns 0x00 (0000ms, 0818ms total)
T9374 001:234 JLINK_WriteReg(R6, 0x00000000)  returns 0x00 (0000ms, 0818ms total)
T9374 001:234 JLINK_WriteReg(R7, 0x00000000)  returns 0x00 (0000ms, 0818ms total)
T9374 001:234 JLINK_WriteReg(R8, 0x00000000)  returns 0x00 (0000ms, 0818ms total)
T9374 001:234 JLINK_WriteReg(R9, 0x20000160)  returns 0x00 (0000ms, 0818ms total)
T9374 001:234 JLINK_WriteReg(R10, 0x00000000)  returns 0x00 (0000ms, 0818ms total)
T9374 001:234 JLINK_WriteReg(R11, 0x00000000)  returns 0x00 (0000ms, 0818ms total)
T9374 001:234 JLINK_WriteReg(R12, 0x00000000)  returns 0x00 (0000ms, 0818ms total)
T9374 001:234 JLINK_WriteReg(R13 (SP), 0x20000800)  returns 0x00 (0000ms, 0818ms total)
T9374 001:234 JLINK_WriteReg(R14, 0x20000001)  returns 0x00 (0000ms, 0818ms total)
T9374 001:234 JLINK_WriteReg(R15 (PC), 0x200000F4)  returns 0x00 (0000ms, 0818ms total)
T9374 001:234 JLINK_WriteReg(XPSR, 0x01000000)  returns 0x00 (0000ms, 0818ms total)
T9374 001:234 JLINK_WriteReg(MSP, 0x20000800)  returns 0x00 (0000ms, 0818ms total)
T9374 001:234 JLINK_WriteReg(PSP, 0x20000800)  returns 0x00 (0000ms, 0818ms total)
T9374 001:234 JLINK_WriteReg(CFBP, 0x00000000)  returns 0x00 (0001ms, 0819ms total)
T9374 001:235 JLINK_SetBPEx(Addr = 0x20000000, Type = 0xFFFFFFF2)  returns 0x0000000A (0000ms, 0819ms total)
T9374 001:235 JLINK_Go() -- CPU_ReadMem(4 bytes @ 0xE0001000) (0004ms, 0823ms total)
T9374 001:239 JLINK_IsHalted()  returns FALSE (0001ms, 0824ms total)
T9374 001:244 JLINK_IsHalted()  returns FALSE (0000ms, 0823ms total)
T9374 001:245 JLINK_IsHalted()  returns FALSE (0000ms, 0823ms total)
T9374 001:246 JLINK_IsHalted()  returns FALSE (0000ms, 0823ms total)
T9374 001:249 JLINK_IsHalted()  returns FALSE (0000ms, 0823ms total)
T9374 001:250 JLINK_IsHalted()  returns FALSE (0000ms, 0823ms total)
T9374 001:251 JLINK_IsHalted()  returns FALSE (0000ms, 0823ms total)
T9374 001:252 JLINK_IsHalted()  returns FALSE (0000ms, 0823ms total)
T9374 001:253 JLINK_IsHalted()  returns FALSE (0000ms, 0823ms total)
T9374 001:254 JLINK_IsHalted()  returns FALSE (0000ms, 0823ms total)
T9374 001:255 JLINK_IsHalted()  returns FALSE (0000ms, 0823ms total)
T9374 001:256 JLINK_IsHalted()  returns FALSE (0000ms, 0823ms total)
T9374 001:257 JLINK_IsHalted()  returns FALSE (0000ms, 0823ms total)
T9374 001:258 JLINK_IsHalted()  returns FALSE (0000ms, 0823ms total)
T9374 001:259 JLINK_IsHalted()  returns FALSE (0000ms, 0823ms total)
T9374 001:260 JLINK_IsHalted()  returns FALSE (0000ms, 0823ms total)
T9374 001:261 JLINK_IsHalted()  returns FALSE (0000ms, 0823ms total)
T9374 001:262 JLINK_IsHalted()  returns FALSE (0000ms, 0823ms total)
T9374 001:264 JLINK_IsHalted()  returns FALSE (0000ms, 0823ms total)
T9374 001:265 JLINK_IsHalted()  returns FALSE (0000ms, 0823ms total)
T9374 001:266 JLINK_IsHalted()  returns FALSE (0000ms, 0823ms total)
T9374 001:267 JLINK_IsHalted()  returns FALSE (0000ms, 0823ms total)
T9374 001:268 JLINK_IsHalted()  returns FALSE (0000ms, 0823ms total)
T9374 001:269 JLINK_IsHalted()  returns FALSE (0000ms, 0823ms total)
T9374 001:270 JLINK_IsHalted() -- CPU_ReadMem(2 bytes @ 0x20000000)  returns TRUE (0004ms, 0827ms total)
T9374 001:274 JLINK_ReadReg(R15 (PC))  returns 0x20000000 (0000ms, 0823ms total)
T9374 001:274 JLINK_ClrBPEx(BPHandle = 0x0000000A)  returns 0x00 (0000ms, 0823ms total)
T9374 001:274 JLINK_ReadReg(R0)  returns 0x00000000 (0000ms, 0823ms total)
T9374 001:275 JLINK_WriteMem(0x20000164, 0x0400 Bytes, ...) - Data: 00 EB 0A 10 31 68 89 00 B0 FB F1 F8 64 20 B8 FB ... -- CPU_WriteMem(1024 bytes @ 0x20000164)  returns 0x400 (0012ms, 0835ms total)
T9374 001:287 JLINK_WriteReg(R0, 0x08001800)  returns 0x00 (0000ms, 0835ms total)
T9374 001:287 JLINK_WriteReg(R1, 0x00000400)  returns 0x00 (0000ms, 0835ms total)
T9374 001:287 JLINK_WriteReg(R2, 0x20000164)  returns 0x00 (0000ms, 0835ms total)
T9374 001:287 JLINK_WriteReg(R3, 0x00000000)  returns 0x00 (0000ms, 0835ms total)
T9374 001:287 JLINK_WriteReg(R4, 0x00000000)  returns 0x00 (0000ms, 0835ms total)
T9374 001:287 JLINK_WriteReg(R5, 0x00000000)  returns 0x00 (0000ms, 0835ms total)
T9374 001:287 JLINK_WriteReg(R6, 0x00000000)  returns 0x00 (0000ms, 0835ms total)
T9374 001:287 JLINK_WriteReg(R7, 0x00000000)  returns 0x00 (0000ms, 0835ms total)
T9374 001:287 JLINK_WriteReg(R8, 0x00000000)  returns 0x00 (0000ms, 0835ms total)
T9374 001:287 JLINK_WriteReg(R9, 0x20000160)  returns 0x00 (0000ms, 0835ms total)
T9374 001:287 JLINK_WriteReg(R10, 0x00000000)  returns 0x00 (0000ms, 0835ms total)
T9374 001:287 JLINK_WriteReg(R11, 0x00000000)  returns 0x00 (0000ms, 0835ms total)
T9374 001:287 JLINK_WriteReg(R12, 0x00000000)  returns 0x00 (0000ms, 0835ms total)
T9374 001:287 JLINK_WriteReg(R13 (SP), 0x20000800)  returns 0x00 (0000ms, 0835ms total)
T9374 001:287 JLINK_WriteReg(R14, 0x20000001)  returns 0x00 (0000ms, 0835ms total)
T9374 001:287 JLINK_WriteReg(R15 (PC), 0x200000F4)  returns 0x00 (0000ms, 0835ms total)
T9374 001:287 JLINK_WriteReg(XPSR, 0x01000000)  returns 0x00 (0000ms, 0835ms total)
T9374 001:287 JLINK_WriteReg(MSP, 0x20000800)  returns 0x00 (0000ms, 0835ms total)
T9374 001:287 JLINK_WriteReg(PSP, 0x20000800)  returns 0x00 (0000ms, 0835ms total)
T9374 001:288 JLINK_WriteReg(CFBP, 0x00000000)  returns 0x00 (0000ms, 0835ms total)
T9374 001:288 JLINK_SetBPEx(Addr = 0x20000000, Type = 0xFFFFFFF2)  returns 0x0000000B (0000ms, 0835ms total)
T9374 001:288 JLINK_Go() -- CPU_ReadMem(4 bytes @ 0xE0001000) (0004ms, 0839ms total)
T9374 001:292 JLINK_IsHalted()  returns FALSE (0001ms, 0840ms total)
T9374 001:299 JLINK_IsHalted()  returns FALSE (0000ms, 0839ms total)
T9374 001:300 JLINK_IsHalted()  returns FALSE (0000ms, 0839ms total)
T9374 001:301 JLINK_IsHalted()  returns FALSE (0000ms, 0839ms total)
T9374 001:302 JLINK_IsHalted()  returns FALSE (0000ms, 0839ms total)
T9374 001:303 JLINK_IsHalted()  returns FALSE (0000ms, 0839ms total)
T9374 001:304 JLINK_IsHalted()  returns FALSE (0000ms, 0839ms total)
T9374 001:305 JLINK_IsHalted()  returns FALSE (0000ms, 0839ms total)
T9374 001:306 JLINK_IsHalted()  returns FALSE (0000ms, 0839ms total)
T9374 001:309 JLINK_IsHalted()  returns FALSE (0000ms, 0839ms total)
T9374 001:310 JLINK_IsHalted()  returns FALSE (0000ms, 0839ms total)
T9374 001:311 JLINK_IsHalted()  returns FALSE (0000ms, 0839ms total)
T9374 001:312 JLINK_IsHalted()  returns FALSE (0000ms, 0839ms total)
T9374 001:313 JLINK_IsHalted()  returns FALSE (0000ms, 0839ms total)
T9374 001:314 JLINK_IsHalted()  returns FALSE (0000ms, 0839ms total)
T9374 001:315 JLINK_IsHalted()  returns FALSE (0000ms, 0839ms total)
T9374 001:316 JLINK_IsHalted()  returns FALSE (0000ms, 0839ms total)
T9374 001:317 JLINK_IsHalted()  returns FALSE (0000ms, 0839ms total)
T9374 001:318 JLINK_IsHalted()  returns FALSE (0000ms, 0839ms total)
T9374 001:319 JLINK_IsHalted()  returns FALSE (0000ms, 0839ms total)
T9374 001:320 JLINK_IsHalted()  returns FALSE (0000ms, 0839ms total)
T9374 001:321 JLINK_IsHalted()  returns FALSE (0000ms, 0839ms total)
T9374 001:322 JLINK_IsHalted()  returns FALSE (0000ms, 0839ms total)
T9374 001:326 JLINK_IsHalted() -- CPU_ReadMem(2 bytes @ 0x20000000)  returns TRUE (0004ms, 0843ms total)
T9374 001:330 JLINK_ReadReg(R15 (PC))  returns 0x20000000 (0000ms, 0839ms total)
T9374 001:330 JLINK_ClrBPEx(BPHandle = 0x0000000B)  returns 0x00 (0000ms, 0839ms total)
T9374 001:330 JLINK_ReadReg(R0)  returns 0x00000000 (0000ms, 0839ms total)
T9374 001:331 JLINK_WriteMem(0x20000164, 0x0400 Bytes, ...) - Data: 01 20 00 E0 00 20 70 47 81 68 41 F0 04 01 81 60 ... -- CPU_WriteMem(1024 bytes @ 0x20000164)  returns 0x400 (0012ms, 0851ms total)
T9374 001:343 JLINK_WriteReg(R0, 0x08001C00)  returns 0x00 (0000ms, 0851ms total)
T9374 001:343 JLINK_WriteReg(R1, 0x00000400)  returns 0x00 (0000ms, 0851ms total)
T9374 001:343 JLINK_WriteReg(R2, 0x20000164)  returns 0x00 (0000ms, 0851ms total)
T9374 001:343 JLINK_WriteReg(R3, 0x00000000)  returns 0x00 (0000ms, 0851ms total)
T9374 001:343 JLINK_WriteReg(R4, 0x00000000)  returns 0x00 (0000ms, 0851ms total)
T9374 001:343 JLINK_WriteReg(R5, 0x00000000)  returns 0x00 (0000ms, 0851ms total)
T9374 001:344 JLINK_WriteReg(R6, 0x00000000)  returns 0x00 (0000ms, 0852ms total)
T9374 001:344 JLINK_WriteReg(R7, 0x00000000)  returns 0x00 (0000ms, 0852ms total)
T9374 001:344 JLINK_WriteReg(R8, 0x00000000)  returns 0x00 (0000ms, 0852ms total)
T9374 001:344 JLINK_WriteReg(R9, 0x20000160)  returns 0x00 (0000ms, 0852ms total)
T9374 001:344 JLINK_WriteReg(R10, 0x00000000)  returns 0x00 (0000ms, 0852ms total)
T9374 001:344 JLINK_WriteReg(R11, 0x00000000)  returns 0x00 (0000ms, 0852ms total)
T9374 001:344 JLINK_WriteReg(R12, 0x00000000)  returns 0x00 (0000ms, 0852ms total)
T9374 001:344 JLINK_WriteReg(R13 (SP), 0x20000800)  returns 0x00 (0000ms, 0852ms total)
T9374 001:344 JLINK_WriteReg(R14, 0x20000001)  returns 0x00 (0000ms, 0852ms total)
T9374 001:344 JLINK_WriteReg(R15 (PC), 0x200000F4)  returns 0x00 (0000ms, 0852ms total)
T9374 001:344 JLINK_WriteReg(XPSR, 0x01000000)  returns 0x00 (0000ms, 0852ms total)
T9374 001:344 JLINK_WriteReg(MSP, 0x20000800)  returns 0x00 (0000ms, 0852ms total)
T9374 001:344 JLINK_WriteReg(PSP, 0x20000800)  returns 0x00 (0000ms, 0852ms total)
T9374 001:344 JLINK_WriteReg(CFBP, 0x00000000)  returns 0x00 (0000ms, 0852ms total)
T9374 001:344 JLINK_SetBPEx(Addr = 0x20000000, Type = 0xFFFFFFF2)  returns 0x0000000C (0000ms, 0852ms total)
T9374 001:344 JLINK_Go() -- CPU_ReadMem(4 bytes @ 0xE0001000) (0004ms, 0856ms total)
T9374 001:348 JLINK_IsHalted()  returns FALSE (0001ms, 0857ms total)
T9374 001:353 JLINK_IsHalted()  returns FALSE (0000ms, 0856ms total)
T9374 001:357 JLINK_IsHalted()  returns FALSE (0000ms, 0856ms total)
T9374 001:358 JLINK_IsHalted()  returns FALSE (0000ms, 0856ms total)
T9374 001:359 JLINK_IsHalted()  returns FALSE (0000ms, 0856ms total)
T9374 001:360 JLINK_IsHalted()  returns FALSE (0000ms, 0856ms total)
T9374 001:361 JLINK_IsHalted()  returns FALSE (0000ms, 0856ms total)
T9374 001:362 JLINK_IsHalted()  returns FALSE (0000ms, 0856ms total)
T9374 001:363 JLINK_IsHalted()  returns FALSE (0000ms, 0856ms total)
T9374 001:364 JLINK_IsHalted()  returns FALSE (0001ms, 0857ms total)
T9374 001:366 JLINK_IsHalted()  returns FALSE (0000ms, 0856ms total)
T9374 001:367 JLINK_IsHalted()  returns FALSE (0000ms, 0856ms total)
T9374 001:368 JLINK_IsHalted()  returns FALSE (0000ms, 0856ms total)
T9374 001:369 JLINK_IsHalted()  returns FALSE (0000ms, 0856ms total)
T9374 001:370 JLINK_IsHalted()  returns FALSE (0000ms, 0856ms total)
T9374 001:371 JLINK_IsHalted()  returns FALSE (0000ms, 0856ms total)
T9374 001:372 JLINK_IsHalted()  returns FALSE (0000ms, 0856ms total)
T9374 001:373 JLINK_IsHalted()  returns FALSE (0000ms, 0856ms total)
T9374 001:374 JLINK_IsHalted()  returns FALSE (0000ms, 0856ms total)
T9374 001:375 JLINK_IsHalted()  returns FALSE (0000ms, 0856ms total)
T9374 001:376 JLINK_IsHalted()  returns FALSE (0000ms, 0856ms total)
T9374 001:377 JLINK_IsHalted()  returns FALSE (0000ms, 0856ms total)
T9374 001:378 JLINK_IsHalted()  returns FALSE (0000ms, 0856ms total)
T9374 001:379 JLINK_IsHalted() -- CPU_ReadMem(2 bytes @ 0x20000000)  returns TRUE (0004ms, 0860ms total)
T9374 001:383 JLINK_ReadReg(R15 (PC))  returns 0x20000000 (0000ms, 0856ms total)
T9374 001:383 JLINK_ClrBPEx(BPHandle = 0x0000000C)  returns 0x00 (0000ms, 0856ms total)
